<Qucs Dataset 0.0.15>
<indep x 10>
  +5.00000000000e+00
  +1.00000000000e+01
  +1.50000000000e+01
  +2.00000000000e+01
  +2.50000000000e+01
  +3.00000000000e+01
  +3.50000000000e+01
  +4.00000000000e+01
  +4.50000000000e+01
  +5.00000000000e+01
</indep>
<dep V1.I x>
  -1.60000000000e+00
  -9.33333333333e-01
  -6.58823529412e-01
  -5.09090909091e-01
  -4.14814814815e-01
  -3.50000000000e-01
  -3.02702702703e-01
  -2.66666666667e-01
  -2.38297872340e-01
  -2.15384615385e-01
</dep>
<dep _net0.V x>
  +1.12000000000e+01
  +1.12000000000e+01
  +1.12000000000e+01
  +1.12000000000e+01
  +1.12000000000e+01
  +1.12000000000e+01
  +1.12000000000e+01
  +1.12000000000e+01
  +1.12000000000e+01
  +1.12000000000e+01
</dep>
<dep izeja.V x>
  +8.00000000000e+00
  +9.33333333333e+00
  +9.88235294118e+00
  +1.01818181818e+01
  +1.03703703704e+01
  +1.05000000000e+01
  +1.05945945946e+01
  +1.06666666667e+01
  +1.07234042553e+01
  +1.07692307692e+01
</dep>
